(1789297884.083897) lab 100#2512703C01000349 R
(1789297884.084372) lab 1A0#0200000000000074 R
(1789297884.084840) lab 300#022500000000 R
(1789297884.104073) lab 100#5112703C01000328 R
(1789297884.104488) lab 1A0#11000220000001A9 R
(1789297884.124042) lab 100#7C12703C010003A1 R
(1789297884.124460) lab 1A0#200003300000024A R
(1789297884.144075) lab 100#A712703C01000352 R
(1789297884.144472) lab 1A0#2F000550000003B4 R
(1789297884.164235) lab 100#D112703C01000389 R
(1789297884.164562) lab 1A0#3E000660000004D2 R
(1789297884.184332) lab 100#F912703C01000334 R
(1789297884.185123) lab 1A0#4E0008800000053A R
(1789297884.185685) lab 300#022500000000 R
(1789297884.204255) lab 100#2013703C0100033B R
(1789297884.205094) lab 1A0#5D0009900000060C R
(1789297884.224151) lab 100#4513703C010003BE R
(1789297884.224693) lab 1A0#6B000BB00000078A R
(1789297884.244129) lab 100#6813703C01000337 R
(1789297884.244862) lab 1A0#7A000CC000000825 R
(1789297884.264313) lab 100#8913703C0100037A R
(1789297884.265070) lab 1A0#89000EE0000009E8 R
(1789297884.284184) lab 100#A813703C01000348 R
(1789297884.284657) lab 1A0#98000FF000000A64 R
(1789297884.285319) lab 300#022500000000 R
(1789297884.304096) lab 100#C413703C01000342 R
(1789297884.304590) lab 1A0#A700111001000B6F R
(1789297884.324358) lab 100#DE13703C01000393 R
(1789297884.325305) lab 1A0#B700122001000C54 R
(1789297884.344020) lab 100#F613703D010003B3 R
(1789297884.344515) lab 1A0#C500144001000D44 R
(1789297884.364084) lab 100#0B14703D01000333 R
(1789297884.364488) lab 1A0#D400155001000EC8 R
(1789297884.384327) lab 100#1F14703D010003E3 R
(1789297884.384947) lab 1A0#E3001770010000A8 R
(1789297884.385825) lab 300#022500000000 R
(1789297884.404160) lab 100#3014703D010003D0 R
(1789297884.404521) lab 1A0#F2001880010001E3 R
(1789297884.424023) lab 100#4014703D010003D8 R
(1789297884.424490) lab 1A0#01011A900100023D R
(1789297884.444171) lab 100#4D14703D0100033E R
(1789297884.444642) lab 1A0#10011BB0010003E4 R
(1789297884.464329) lab 100#5A14703D01000309 R
(1789297884.465136) lab 1A0#20011DC0010004FB R
(1789297884.483991) lab 100#6614703D01000364 R
(1789297884.484976) lab 300#022500000000 R
(1789297884.504041) lab 100#7014703D0100030E R
(1789297884.504415) lab 1A0#3D0120F001000676 R
(1789297884.524009) lab 100#7B14703D0100033B R
(1789297884.524450) lab 1A0#4C0122100200078D R
(1789297884.544158) lab 100#8514703D01000393 R
(1789297884.544723) lab 1A0#5B01232002000804 R
(1789297884.564268) lab 100#8F14703D01000304 R
(1789297884.564838) lab 1A0#6A0125400200092D R
(1789297884.584215) lab 100#9A14703D01000376 R
(1789297884.584980) lab 1A0#7901265002000ACF R
(1789297884.586376) lab 300#022500000000 R
(1789297884.604281) lab 100#A614703D0100031B R
(1789297884.605309) lab 1A0#8901287002000B27 R
(1789297884.624296) lab 100#B314703D01000396 R
(1789297884.625151) lab 1A0#9801298002000C34 R
(1789297884.644311) lab 100#C214703D010003C3 R
(1789297884.645619) lab 1A0#A7012BA002000D3D R
(1789297884.664462) lab 100#D214703D0100037A R
(1789297884.665873) lab 1A0#B6012CB002000ED0 R
(1789297884.684390) lab 100#E414703D0100037F R
(1789297884.685204) lab 1A0#C5012ED002000093 R
(1789297884.686275) lab 300#022500000000 R
(1789297884.704247) lab 100#F814703D0100037D R
(1789297884.705146) lab 1A0#D4012FE00200016F R
(1789297884.724318) lab 100#0E15703D01000341 R
(1789297884.725072) lab 1A0#E2013100030002D1 R
(1789297884.744245) lab 100#2715703D010003A1 R
(1789297884.744915) lab 1A0#F101321003000309 R
(1789297884.764293) lab 100#4215703D01000324 R
(1789297884.764891) lab 1A0#000234300300044F R
(1789297884.784285) lab 100#5F15703D0100037B R
(1789297884.785339) lab 1A0#100235400300057A R
(1789297884.785876) lab 300#022500000000 R
(1789297884.804284) lab 100#7E15703D01000349 R
(1789297884.804818) lab 1A0#1E023760030006C2 R
(1789297884.824328) lab 100#A015703D0100038E R
(1789297884.825032) lab 1A0#2D023870030007B7 R
(1789297884.844173) lab 100#C415703E010003EC R
(1789297884.844573) lab 1A0#3C023A90030008D7 R
(1789297884.864063) lab 100#EA15703E01000382 R
(1789297884.884142) lab 100#1116703E010003D4 R
(1789297884.884608) lab 1A0#5A023DC003000A35 R
(1789297884.885419) lab 300#022500000000 R
(1789297884.904104) lab 100#3A16703E0100038E R
(1789297884.904483) lab 1A0#69023ED003000B82 R
(1789297884.924312) lab 100#6416703E010003E8 R
(1789297884.924820) lab 1A0#780240F003000CD9 R
(1789297884.944256) lab 100#8F16703E010003CD R
(1789297884.944731) lab 1A0#8702410004000D1F R
(1789297884.964154) lab 100#BA16703E0100032F R
(1789297884.964594) lab 1A0#9602432004000E42 R
(1789297884.984221) lab 100#E616703E010003F3 R
(1789297884.984991) lab 1A0#A5024430040000FB R
(1789297884.986280) lab 300#022500000000 R
(1789297885.004217) lab 100#1217703E01000375 R
(1789297885.005166) lab 1A0#B502465004000155 R
(1789297885.024254) lab 100#3D17703E01000346 R
(1789297885.025069) lab 1A0#C3024760040002AC R
(1789297885.044248) lab 100#6817703E01000315 R
(1789297885.045784) lab 1A0#D3024980040003F5 R
(1789297885.064395) lab 100#9217703E0100032B R
(1789297885.065823) lab 1A0#E2024B90040004DC R
(1789297885.084178) lab 100#BA17703E01000369 R
(1789297885.084880) lab 1A0#F0024CA0040005A6 R
(1789297885.085381) lab 300#022500000000 R
(1789297885.104164) lab 100#E017703E01000366 R
(1789297885.104635) lab 1A0#FF024DC004000669 R
(1789297885.124093) lab 100#0518703E01000387 R
(1789297885.124894) lab 1A0#0E034FD004000737 R
(1789297885.144257) lab 100#2818703E0100030E R
(1789297885.144724) lab 1A0#1D0351F004000860 R
(1789297885.164198) lab 100#4918703E010003E2 R
(1789297885.164685) lab 1A0#2C03520005000909 R
(1789297885.184155) lab 100#6718703E0100038C R
(1789297885.184620) lab 1A0#3B03542005000A32 R
(1789297885.185484) lab 300#022500000000 R
(1789297885.204129) lab 100#8318703E010003F5 R
(1789297885.204896) lab 1A0#4A03553005000B35 R
(1789297885.224203) lab 100#9D18703E0100034D R
(1789297885.224610) lab 1A0#5903575005000C32 R
(1789297885.244128) lab 100#B418703E010003AD R
(1789297885.244804) lab 1A0#6803586005000DB7 R
(1789297885.264144) lab 100#CA18703E010003A4 R
(1789297885.264476) lab 1A0#77035A8005000E4A R
(1789297885.284229) lab 100#DD18703E01000393 R
(1789297885.284908) lab 1A0#86035B9005000057 R
(1789297885.285966) lab 300#022500000000 R
(1789297885.304055) lab 100#EE18703E010003A2 R
(1789297885.304571) lab 1A0#95035DB00500013F R
(1789297885.324271) lab 100#FD18703E010003FC R
(1789297885.324678) lab 1A0#A4035EC0050002D6 R
(1789297885.344167) lab 100#0B19703F0100035D R
(1789297885.344990) lab 1A0#B30360E00500038F R
(1789297885.364435) lab 100#1719703F0100035F R
(1789297885.365849) lab 1A0#C30361F00500049B R
(1789297885.384251) lab 100#2319703F010003E0 R
(1789297885.384800) lab 1A0#D103631006000536 R
(1789297885.385688) lab 300#022500000000 R
(1789297885.404286) lab 100#2D19703F010003E1 R
(1789297885.405398) lab 1A0#E1036420060006A3 R
(1789297885.424109) lab 100#3819703F0100036C R
(1789297885.424712) lab 1A0#EF036640060007B5 R
(1789297885.444202) lab 100#4219703F0100030C R
(1789297885.444611) lab 1A0#FE036750060008A5 R
(1789297885.464332) lab 100#4C19703F0100030D R
(1789297885.465579) lab 1A0#0E04697006000982 R
(1789297885.484134) lab 100#5719703F01000381 R
(1789297885.484627) lab 1A0#1C046A8006000AD6 R
(1789297885.485224) lab 300#022500000000 R
(1789297885.504182) lab 100#6319703F0100033E R
(1789297885.504597) lab 1A0#2B046CA006000BB8 R
(1789297885.524143) lab 100#7119703F0100033D R
(1789297885.544192) lab 100#7F19703F0100033C R
(1789297885.544725) lab 1A0#49046FD006000DB8 R
(1789297885.564454) lab 100#9019703F0100038F R
(1789297885.565593) lab 1A0#590470E006000EDB R
(1789297885.584206) lab 100#A219703F0100031C R
(1789297885.584724) lab 1A0#670472000700001A R
(1789297885.585597) lab 300#022500000000 R
(1789297885.604089) lab 100#B619703F010003CC R
(1789297885.604774) lab 1A0#76047310070001AC R
(1789297885.624193) lab 100#CD19703F010003F1 R
(1789297885.624695) lab 1A0#85047530070002EE R
(1789297885.644144) lab 100#E519703F0100034C R
(1789297885.644568) lab 1A0#9404764007000352 R
(1789297885.664314) lab 100#011A703F010003FF R
(1789297885.684170) lab 100#1E1A703F0100031A R
(1789297885.684711) lab 1A0#B2047970070005B3 R
(1789297885.685598) lab 300#022500000000 R
(1789297885.704196) lab 100#3E1A703F01000375 R
(1789297885.704726) lab 1A0#C1047B9007000644 R
(1789297885.724167) lab 100#601A703F01000313 R
(1789297885.724607) lab 1A0#D0047CA0070007D9 R
(1789297885.744104) lab 100#841A703F0100036A R
(1789297885.744738) lab 1A0#DF047EB0070008CF R
(1789297885.764323) lab 100#AA1A703F01000304 R
(1789297885.784130) lab 100#D21A703F010003DE R
(1789297885.784605) lab 1A0#FD0481E007000A7E R
(1789297885.785342) lab 300#022500000000 R
(1789297885.804085) lab 100#FB1A703F0100033E R
(1789297885.804806) lab 1A0#0C05830008000B68 R
(1789297885.824118) lab 100#251B703F010003BF R
(1789297885.824571) lab 1A0#1B05841008000C22 R
(1789297885.844200) lab 100#501B704001000310 R
(1789297885.844730) lab 1A0#2A05863008000D2A R
(1789297885.864407) lab 100#7C1B7040010003C4 R
(1789297885.865484) lab 1A0#3A05874008000E25 R
(1789297885.884135) lab 100#A71B704001000337 R
(1789297885.884665) lab 1A0#480589600800006D R
(1789297885.885503) lab 300#022500000000 R
(1789297885.904031) lab 100#D31B704001000356 R
(1789297885.904533) lab 1A0#57058A700800010E R
(1789297885.924262) lab 100#FE1B7040010003DF R
(1789297885.924676) lab 1A0#66058C9008000228 R
(1789297885.944220) lab 100#291C704001000358 R
(1789297885.944839) lab 1A0#75058DA00800036E R
(1789297885.964402) lab 100#521C704001000365 R
(1789297885.965690) lab 1A0#85058FC00800049E R
(1789297885.984158) lab 100#7A1C7040010003D8 R
(1789297885.984638) lab 1A0#930590D00800055E R
(1789297885.985359) lab 300#022500000000 R
(1789297886.004274) lab 100#A01C704001000376 R
(1789297886.005255) lab 1A0#A30592F008000631 R
(1789297886.024224) lab 100#C51C7040010003F3 R
(1789297886.024695) lab 1A0#B105930009000704 R
(1789297886.044314) lab 100#E81C70400100037A R
(1789297886.045020) lab 1A0#C0059520090008C1 R
(1789297886.064377) lab 100#081D7040010003D3 R
(1789297886.065409) lab 1A0#D0059630090009FE R
(1789297886.084136) lab 100#261D704001000342 R
(1789297886.084623) lab 1A0#DE05985009000A10 R
(1789297886.085590) lab 300#022500000000 R
(1789297886.104115) lab 100#421D70400100039A R
(1789297886.104531) lab 1A0#ED05996009000B39 R
(1789297886.124332) lab 100#5C1D704001000322 R
(1789297886.124972) lab 1A0#FC059B8009000CB1 R
(1789297886.144105) lab 100#731D704001000311 R
(1789297886.144782) lab 1A0#0B069C9009000D6F R
(1789297886.164181) lab 100#881D70400100038D R
(1789297886.165006) lab 1A0#1A069EB009000E32 R
(1789297886.184261) lab 100#9B1D7040010003D3 R
(1789297886.184805) lab 1A0#29069FC009000034 R
(1789297886.185801) lab 300#022500000000 R
(1789297886.204144) lab 100#AB1D704001000305 R
(1789297886.204801) lab 1A0#3806A1E0090001BE R
(1789297886.224307) lab 100#BB1D7040010003BC R
(1789297886.225288) lab 1A0#4806A2F00900020A R
(1789297886.244305) lab 100#C81D704001000353 R
(1789297886.244900) lab 1A0#5606A4100A0003A9 R
(1789297886.264395) lab 100#D41D704001000351 R
(1789297886.265471) lab 1A0#6606A5200A000429 R
(1789297886.284290) lab 100#E01D7040010003EE R
(1789297886.285076) lab 1A0#7506A7400A000560 R
(1789297886.285976) lab 300#022500000000 R
(1789297886.304256) lab 100#EA1D704001000386 R
(1789297886.305100) lab 1A0#8406A8500A0006EA R
(1789297886.324144) lab 100#F51D704001000363 R
(1789297886.324695) lab 1A0#9206AA700A000703 R
(1789297886.344060) lab 100#FF1D704101000396 R
(1789297886.344615) lab 1A0#A106AB800A00082D R
(1789297886.364381) lab 100#091E704101000326 R
(1789297886.365446) lab 1A0#B106ADA00A0009A2 R
(1789297886.384283) lab 100#151E704101000324 R
(1789297886.385040) lab 1A0#BF06AEB00A000A1F R
(1789297886.385879) lab 300#022500000000 R
(1789297886.404173) lab 100#211E70410100039B R
(1789297886.404819) lab 1A0#CE06B0C00A000B54 R
(1789297886.424123) lab 100#2E1E7041010003C7 R
(1789297886.424826) lab 1A0#DD06B1E00A000C79 R
(1789297886.444295) lab 100#3D1E704101000399 R
(1789297886.445374) lab 1A0#ED06B3F00A000D43 R
(1789297886.464226) lab 100#4D1E704101000391 R
(1789297886.464703) lab 1A0#FB06B5100B000E0B R
(1789297886.483923) lab 100#601E704101000318 R
(1789297886.484480) lab 1A0#0A07B6200B0000CE R
(1789297886.484895) lab 300#022500000000 R
(1789297886.503989) lab 100#741E7041010003C8 R
(1789297886.504389) lab 1A0#1907B8400B000145 R
(1789297886.524000) lab 100#8B1E70410100033D R
(1789297886.524476) lab 1A0#2807B9500B0002A6 R
(1789297886.544011) lab 100#A41E70410100030E R
(1789297886.544543) lab 1A0#3707BB700B0003C0 R
(1789297886.564350) lab 100#C01E704101000329 R
(1789297886.584702) lab 1A0#5507BEA00B0005DE R
(1789297886.585569) lab 300#022500000000 R
(1789297886.604685) lab 1A0#6407BFB00B00063D R
(1789297886.624822) lab 1A0#7307C1D00B00076F R
(1789297886.664924) lab 1A0#9107C4000C0009B2 R
(1789297886.684780) lab 1A0#A007C5100C000A51 R
(1789297886.685346) lab 300#022500000000 R
(1789297886.704750) lab 1A0#AF07C7300C000B8E R
(1789297886.724842) lab 1A0#BE07C8400C000CBE R
(1789297886.764772) lab 1A0#DC07CB700C000E5E R
(1789297886.784714) lab 1A0#EB07CD900C00002A R
(1789297886.785120) lab 300#022500000000 R
(1789297886.804725) lab 1A0#FA07CEA00C000102 R
(1789297886.824685) lab 1A0#0908D0C00C000288 R
(1789297886.845052) lab 1A0#1808D1D00C00033E R
(1789297886.865085) lab 1A0#2708D3F00C000479 R
(1789297886.884637) lab 1A0#3608D4000D0005CA R
(1789297886.885065) lab 300#022500000000 R
(1789297886.904567) lab 1A0#4508D6200D00069C R
(1789297886.924618) lab 1A0#5408D7300D00072A R
(1789297886.944725) lab 1A0#6308D9500D000801 R
(1789297886.964871) lab 1A0#7208DA600D000929 R
(1789297886.984636) lab 1A0#8108DC800D000ACA R
(1789297886.985309) lab 300#022500000000 R
(1789297887.004659) lab 1A0#9008DD900D000B7C R
(1789297887.024797) lab 1A0#9F08DFB00D000CED R
(1789297887.044789) lab 1A0#AE08E0C00D000DD3 R
(1789297887.064646) lab 1A0#BD08E2D00D000E5B R
(1789297887.084628) lab 1A0#CC08E3F00D000088 R
(1789297887.084990) lab 300#022500000000 R
(1789297887.104639) lab 1A0#DB08E5000E000181 R
(1789297887.124738) lab 1A0#EA08E7200E0002B3 R
(1789297887.144716) lab 1A0#F908E8300E0003A9 R
(1789297887.164861) lab 1A0#0809EA500E000442 R
(1789297887.185270) lab 300#022500000000 R
(1789297887.204588) lab 1A0#2609ED800E000699 R
(1789297887.224471) lab 1A0#3509EE900E000741 R
(1789297887.244472) lab 1A0#4409F0B00E00081D R
(1789297887.264641) lab 1A0#5309F1C00E0009A6 R
(1789297887.284654) lab 1A0#6209F3E00E000A94 R
(1789297887.284995) lab 300#022500000000 R
(1789297887.304742) lab 1A0#7109F4F00E000BF9 R
(1789297887.324761) lab 1A0#8009F6100F000CEE R
(1789297887.344786) lab 1A0#8F09F7200F000DAA R
(1789297887.364948) lab 1A0#9E09F9400F000EA1 R
(1789297887.384634) lab 1A0#AD09FA500F0000AD R
(1789297887.385019) lab 300#022500000000 R
(1789297887.404702) lab 1A0#BC09FC700F00017F R
(1789297887.424663) lab 1A0#CB09FD800F00027A R
(1789297887.444494) lab 1A0#DA09FFA00F00031D R
(1789297887.464528) lab 1A0#E90900B10F000428 R
(1789297887.484610) lab 1A0#F80902D10F0005DB R
(1789297887.485063) lab 300#022500000000 R
(1789297887.504588) lab 1A0#070A03E10F0006C6 R
(1789297887.524753) lab 1A0#160A05011000072B R
(1789297887.544579) lab 1A0#250A06111000083A R
(1789297887.564611) lab 1A0#340A08311000099F R
(1789297887.585006) lab 300#022500000000 R
(1789297887.604616) lab 1A0#520A0B6110000BC8 R
(1789297887.624516) lab 1A0#610A0C7110000C84 R
(1789297887.644589) lab 1A0#700A0E9110000D42 R
(1789297887.664725) lab 1A0#7F0A0FA110000E3C R
(1789297887.684551) lab 1A0#8E0A11C110000048 R
(1789297887.685143) lab 300#022500000000 R
(1789297887.704470) lab 1A0#9D0A12D110000190 R
(1789297887.724563) lab 1A0#AC0A14E110000232 R
(1789297887.744566) lab 1A0#BB0A150111000316 R
(1789297887.764547) lab 1A0#CA0A1711110004E1 R
(1789297887.784519) lab 1A0#D90A183111000594 R
(1789297887.784967) lab 300#022500000000 R
(1789297887.804444) lab 1A0#E80A1A4111000617 R
(1789297887.824554) lab 1A0#F70A1C61110007C4 R
(1789297887.844465) lab 1A0#060B1D7111000882 R
(1789297887.864515) lab 1A0#150B1F91110009FE R
(1789297887.884522) lab 1A0#240B20A111000A6E R
(1789297887.884907) lab 300#022500000000 R
(1789297887.904447) lab 1A0#330B22C111000B4E R
(1789297887.924614) lab 1A0#420B23D111000C07 R
(1789297887.944425) lab 1A0#510B25F111000D6F R
(1789297887.964529) lab 1A0#600B260112000E3F R
(1789297887.984557) lab 1A0#6F0B282112000099 R
(1789297887.984930) lab 300#022500000000 R
(1789297888.004521) lab 1A0#7E0B29311200012F R
(1789297888.024503) lab 1A0#8D0B2B511200024C R
(1789297888.044538) lab 1A0#9C0B2C61120003D1 R
(1789297888.064492) lab 1A0#AB0B2E81120004E5 R
(1789297888.084574) lab 1A0#BA0B2F9112000553 R
(1789297888.085060) lab 300#022500000000 R
