(1789297878.972707) lab 100#2412703C01000033 R
(1789297878.973216) lab 1A0#0200000000000074 R
(1789297878.973728) lab 300#0225000000000040 R
(1789297878.993025) lab 100#5012703C0100014F R
(1789297878.993242) lab 1A0#11000220000001A9 R
(1789297879.012970) lab 100#7B12703C01000232 R
(1789297879.013636) lab 1A0#200003300000024A R
(1789297879.033126) lab 100#A612703C0100030F R
(1789297879.034015) lab 1A0#2F000550000003B4 R
(1789297879.053090) lab 100#D012703C01000487 R
(1789297879.054023) lab 1A0#3E000660000004D2 R
(1789297879.073155) lab 100#F812703C01000527 R
(1789297879.074492) lab 1A0#4E0008800000053A R
(1789297879.075531) lab 300#022500000000015D R
(1789297879.093153) lab 100#1F13703C010006D8 R
(1789297879.093782) lab 1A0#5C00099000000651 R
(1789297879.113155) lab 100#4413703C01000797 R
(1789297879.114420) lab 1A0#6C000BB000000704 R
(1789297879.133090) lab 100#6713703C010008A4 R
(1789297879.133729) lab 1A0#7A000CC000000825 R
(1789297879.153115) lab 100#8913703C010009A8 R
(1789297879.153661) lab 1A0#89000EE0000009E8 R
(1789297879.172989) lab 100#A713703C01000AE1 R
(1789297879.173459) lab 1A0#98000FF000000A64 R
(1789297879.173995) lab 300#022500000000027A R
(1789297879.193165) lab 100#C413703C01000BAA R
(1789297879.193949) lab 1A0#A700111001000B6F R
(1789297879.213080) lab 100#DE13703C01000C28 R
(1789297879.213742) lab 1A0#B600122001000C09 R
(1789297879.233003) lab 100#F613703D01000D15 R
(1789297879.233548) lab 1A0#C500143001000DBF R
(1789297879.252953) lab 100#0B14703D01000EB2 R
(1789297879.253453) lab 1A0#D400155001000EC8 R
(1789297879.272980) lab 100#1E14703D01000099 R
(1789297879.273458) lab 1A0#E30017600100008D R
(1789297879.273903) lab 300#0225000000000367 R
(1789297879.293144) lab 100#3014703D010001EA R
(1789297879.294137) lab 1A0#F2001880010001E3 R
(1789297879.313041) lab 100#3F14703D01000291 R
(1789297879.313478) lab 1A0#01011A900100023D R
(1789297879.333132) lab 100#4D14703D0100033E R
(1789297879.334405) lab 1A0#11011CB0010003B2 R
(1789297879.353075) lab 100#5A14703D0100045A R
(1789297879.353955) lab 1A0#1F011DC001000471 R
(1789297879.372937) lab 100#6514703D010005CD R
(1789297879.373538) lab 1A0#2E011EE001000513 R
(1789297879.373851) lab 300#0225000000000434 R
(1789297879.393094) lab 100#7014703D01000667 R
(1789297879.394562) lab 1A0#3D0120F001000676 R
(1789297879.413330) lab 100#7A14703D01000712 R
(1789297879.415405) lab 1A0#4D012210020007D0 R
(1789297879.432998) lab 100#8514703D0100085C R
(1789297879.433490) lab 1A0#5B01232002000804 R
(1789297879.453026) lab 100#8F14703D01000929 R
(1789297879.453453) lab 1A0#6A0125400200092D R
(1789297879.472907) lab 100#9A14703D01000A83 R
(1789297879.473526) lab 1A0#7901265002000ACF R
(1789297879.474022) lab 300#0225000000000529 R
(1789297879.492782) lab 100#A614703D01000BF3 R
(1789297879.493283) lab 1A0#8801287002000B7A R
(1789297879.512926) lab 100#B314703D01000C2D R
(1789297879.513739) lab 1A0#9701298002000C68 R
(1789297879.533023) lab 100#C114703D01000D82 R
(1789297879.533552) lab 1A0#A6012BA002000D60 R
(1789297879.553023) lab 100#D114703D01000E1C R
(1789297879.553446) lab 1A0#B5012CB002000E37 R
(1789297879.572920) lab 100#E314703D010000D6 R
(1789297879.573348) lab 1A0#C4012ED0020000CE R
(1789297879.574015) lab 300#022500000000060E R
(1789297879.592915) lab 100#F714703D0100011B R
(1789297879.593656) lab 1A0#D3012FE0020001E1 R
(1789297879.613192) lab 100#0E15703D0100025C R
(1789297879.613790) lab 1A0#E2013100030002D1 R
(1789297879.633100) lab 100#2615703D010003FC R
(1789297879.633961) lab 1A0#F101321003000309 R
(1789297879.653210) lab 100#4115703D01000490 R
(1789297879.654096) lab 1A0#000234300300044F R
(1789297879.673004) lab 100#5E15703D01000568 R
(1789297879.673454) lab 1A0#0F0235400300059F R
(1789297879.674343) lab 300#0225000000000713 R
(1789297879.692881) lab 100#7E15703D01000620 R
(1789297879.693416) lab 1A0#1E023760030006C2 R
(1789297879.713144) lab 100#9F15703D01000770 R
(1789297879.713911) lab 1A0#2D023870030007B7 R
(1789297879.732999) lab 100#C315703E010008AD R
(1789297879.733464) lab 1A0#3C023A90030008D7 R
(1789297879.753045) lab 100#E915703E010009B7 R
(1789297879.753620) lab 1A0#4B023BA003000949 R
(1789297879.772987) lab 100#1016703E01000A7C R
(1789297879.773792) lab 1A0#5A023DC003000A35 R
(1789297879.774395) lab 300#02250000000008A8 R
(1789297879.792861) lab 100#3916703E01000B81 R
(1789297879.793383) lab 1A0#69023ED003000B82 R
(1789297879.813050) lab 100#6316703E01000CDD R
(1789297879.813619) lab 1A0#780240F003000CD9 R
(1789297879.832877) lab 100#8E16703E01000D36 R
(1789297879.833382) lab 1A0#8702410004000D1F R
(1789297879.853013) lab 100#BA16703E01000EAE R
(1789297879.853432) lab 1A0#9602432004000E42 R
(1789297879.872966) lab 100#E516703E01000033 R
(1789297879.873875) lab 1A0#A5024430040000FB R
(1789297879.874760) lab 300#02250000000009B5 R
(1789297879.893051) lab 100#1117703E010001A8 R
(1789297879.893723) lab 1A0#B402465004000108 R
(1789297879.913002) lab 100#3C17703E01000206 R
(1789297879.913542) lab 1A0#C3024760040002AC R
(1789297879.932865) lab 100#6717703E01000349 R
(1789297879.933410) lab 1A0#D202497004000366 R
(1789297879.953066) lab 100#9117703E01000460 R
(1789297879.953487) lab 1A0#E1024A9004000451 R
(1789297879.972941) lab 100#B917703E010005C0 R
(1789297879.973758) lab 1A0#F0024CA0040005A6 R
(1789297879.974180) lab 300#0225000000000A92 R
(1789297879.993113) lab 100#E017703E0100060F R
(1789297879.993730) lab 1A0#FF024DC004000669 R
(1789297880.013148) lab 100#0418703E010007AE R
(1789297880.013891) lab 1A0#0E034FD004000737 R
(1789297880.032959) lab 100#2718703E0100089D R
(1789297880.033718) lab 1A0#1D0351F004000860 R
(1789297880.052966) lab 100#4818703E0100096D R
(1789297880.053799) lab 1A0#2C03520005000909 R
(1789297880.072952) lab 100#6618703E01000A24 R
(1789297880.073796) lab 1A0#3B03542005000A32 R
(1789297880.074356) lab 300#0225000000000B8F R
(1789297880.092976) lab 100#8318703E01000B1D R
(1789297880.093476) lab 1A0#4A03553005000B35 R
(1789297880.113269) lab 100#9D18703E01000CF6 R
(1789297880.114035) lab 1A0#5903575005000C32 R
(1789297880.132957) lab 100#B418703E01000D0B R
(1789297880.133448) lab 1A0#6803586005000DB7 R
(1789297880.152890) lab 100#C918703E01000EC2 R
(1789297880.153410) lab 1A0#77035A8005000E4A R
(1789297880.172868) lab 100#DC18703E010000E9 R
(1789297880.173437) lab 1A0#86035B9005000057 R
(1789297880.174078) lab 300#0225000000000CDC R
(1789297880.193036) lab 100#EE18703E01000198 R
(1789297880.193449) lab 1A0#95035DB00500013F R
(1789297880.212939) lab 100#FD18703E010002E1 R
(1789297880.213690) lab 1A0#A4035EC0050002D6 R
(1789297880.232988) lab 100#0B19703F0100035D R
(1789297880.233463) lab 1A0#B30360E00500038F R
(1789297880.252895) lab 100#1719703F0100040C R
(1789297880.253561) lab 1A0#C20361F0050004C6 R
(1789297880.273070) lab 100#2219703F010005F3 R
(1789297880.273755) lab 1A0#D103631006000536 R
(1789297880.274866) lab 300#0225000000000DC1 R
(1789297880.292874) lab 100#2D19703F01000688 R
(1789297880.293498) lab 1A0#E0036420060006FE R
(1789297880.312896) lab 100#3719703F01000744 R
(1789297880.313348) lab 1A0#EF036640060007B5 R
(1789297880.332992) lab 100#4219703F010008C3 R
(1789297880.334021) lab 1A0#FE036750060008A5 R
(1789297880.352937) lab 100#4C19703F010009DF R
(1789297880.353776) lab 1A0#0D04697006000965 R
(1789297880.372777) lab 100#5719703F01000A74 R
(1789297880.373239) lab 1A0#1C046A8006000AD6 R
(1789297880.373784) lab 300#0225000000000EE6 R
(1789297880.392790) lab 100#6319703F01000BD6 R
(1789297880.393263) lab 1A0#2B046CA006000BB8 R
(1789297880.412775) lab 100#7019703F01000CDB R
(1789297880.413260) lab 1A0#3A046DB006000C40 R
(1789297880.432798) lab 100#7F19703F01000D9A R
(1789297880.433263) lab 1A0#49046FD006000DB8 R
(1789297880.452789) lab 100#8F19703F01000E14 R
(1789297880.453277) lab 1A0#580470E006000E86 R
(1789297880.472856) lab 100#A119703F010000DC R
(1789297880.473315) lab 1A0#670472000700001A R
(1789297880.473799) lab 300#0225000000000040 R
(1789297880.492894) lab 100#B619703F010001F6 R
(1789297880.493401) lab 1A0#76047310070001AC R
(1789297880.512905) lab 100#CC19703F010002B1 R
(1789297880.513486) lab 1A0#85047530070002EE R
(1789297880.533045) lab 100#E519703F0100034C R
(1789297880.533459) lab 1A0#9404764007000352 R
(1789297880.553007) lab 100#001A703F010004F1 R
(1789297880.553654) lab 1A0#A304786007000405 R
(1789297880.572989) lab 100#1D1A703F010005B3 R
(1789297880.573583) lab 1A0#B2047970070005B3 R
(1789297880.574999) lab 300#022500000000015D R
(1789297880.592975) lab 100#3D1A703F010006FB R
(1789297880.593544) lab 1A0#C1047B8007000661 R
(1789297880.612971) lab 100#5F1A703F010007ED R
(1789297880.613853) lab 1A0#D0047CA0070007D9 R
(1789297880.633067) lab 100#831A703F0100082B R
(1789297880.633784) lab 1A0#DF047EB0070008CF R
(1789297880.653009) lab 100#A91A703F01000931 R
(1789297880.653965) lab 1A0#EE047FD0070009ED R
(1789297880.673018) lab 100#D11A703F01000ACC R
(1789297880.673637) lab 1A0#FD0481E007000A7E R
(1789297880.674995) lab 300#022500000000027A R
(1789297880.692897) lab 100#FA1A703F01000B8B R
(1789297880.693450) lab 1A0#0C05820008000B02 R
(1789297880.712901) lab 100#241B703F01000C59 R
(1789297880.713891) lab 1A0#1B05841008000C22 R
(1789297880.732977) lab 100#4F1B704001000D53 R
(1789297880.733493) lab 1A0#2A05863008000D2A R
(1789297880.752998) lab 100#7A1B704001000E96 R
(1789297880.753408) lab 1A0#3905874008000EC2 R
(1789297880.772966) lab 100#A61B70400100004D R
(1789297880.773731) lab 1A0#480589600800006D R
(1789297880.774227) lab 300#0225000000000367 R
(1789297880.793110) lab 100#D21B704001000131 R
(1789297880.793906) lab 1A0#57058A700800010E R
(1789297880.812942) lab 100#FD1B704001000225 R
(1789297880.813427) lab 1A0#66058C9008000228 R
(1789297880.832823) lab 100#281C704001000305 R
(1789297880.833343) lab 1A0#75058DA00800036E R
(1789297880.852965) lab 100#511C7040010004D1 R
(1789297880.853761) lab 1A0#84058FC0080004C3 R
(1789297880.872943) lab 100#791C704001000571 R
(1789297880.873480) lab 1A0#930590D00800055E R
(1789297880.874007) lab 300#0225000000000434 R
(1789297880.892880) lab 100#A01C70400100061F R
(1789297880.893397) lab 1A0#A20592F00800066C R
(1789297880.912861) lab 100#C41C7040010007DA R
(1789297880.913465) lab 1A0#B105930009000704 R
(1789297880.932844) lab 100#E71C7040010008E9 R
(1789297880.933412) lab 1A0#C0059520090008C1 R
(1789297880.952915) lab 100#071D7040010009A2 R
(1789297880.953489) lab 1A0#CF0596300900091B R
(1789297880.972932) lab 100#261D704001000AB7 R
(1789297880.973412) lab 1A0#DE05985009000A10 R
(1789297880.974247) lab 300#0225000000000529 R
(1789297880.992958) lab 100#421D704001000B72 R
(1789297880.993481) lab 1A0#ED05996009000B39 R
(1789297881.012916) lab 100#5B1D704001000C17 R
(1789297881.013743) lab 1A0#FC059B8009000CB1 R
(1789297881.032888) lab 100#721D704001000DEA R
(1789297881.033608) lab 1A0#0B069C9009000D6F R
(1789297881.052946) lab 100#871D704001000E50 R
(1789297881.053670) lab 1A0#1A069EB009000E32 R
(1789297881.072805) lab 100#9A1D7040010000A9 R
(1789297881.073242) lab 1A0#29069FC009000034 R
(1789297881.073834) lab 300#022500000000060E R
(1789297881.092798) lab 100#AB1D70400100013F R
(1789297881.093280) lab 1A0#3806A1E0090001BE R
(1789297881.112862) lab 100#BA1D7040010002FC R
(1789297881.113389) lab 1A0#4706A2F009000256 R
(1789297881.132799) lab 100#C81D704001000353 R
(1789297881.133366) lab 1A0#5606A4100A0003A9 R
(1789297881.152877) lab 100#D41D704001000402 R
(1789297881.153383) lab 1A0#6506A5200A0004CE R
(1789297881.172925) lab 100#DF1D70400100052A R
(1789297881.173640) lab 1A0#7406A7400A00053D R
(1789297881.173967) lab 300#0225000000000713 R
(1789297881.192864) lab 100#EA1D7040010006EF R
(1789297881.193479) lab 1A0#8306A8500A000664 R
(1789297881.212830) lab 100#F41D70400100074A R
(1789297881.213351) lab 1A0#9206AA700A000703 R
(1789297881.232848) lab 100#FF1D704101000859 R
(1789297881.233345) lab 1A0#A106AB800A00082D R
(1789297881.252893) lab 100#091E7041010009F4 R
(1789297881.253401) lab 1A0#B006AD900A000990 R
(1789297881.272852) lab 100#141E704101000A8C R
(1789297881.273421) lab 1A0#BF06AEB00A000A1F R
(1789297881.273927) lab 300#02250000000008A8 R
(1789297881.292812) lab 100#201E704101000B2E R
(1789297881.293373) lab 1A0#CE06B0C00A000B54 R
(1789297881.312849) lab 100#2E1E704101000C7C R
(1789297881.313351) lab 1A0#DD06B1E00A000C79 R
(1789297881.332827) lab 100#3C1E704101000D62 R
(1789297881.333359) lab 1A0#EC06B3F00A000D1E R
(1789297881.352803) lab 100#4D1E704101000E10 R
(1789297881.353279) lab 1A0#FB06B4100B000E61 R
(1789297881.372797) lab 100#5F1E7041010000B5 R
(1789297881.373292) lab 1A0#0A07B6200B0000CE R
(1789297881.373785) lab 300#02250000000009B5 R
(1789297881.392832) lab 100#741E7041010001F2 R
(1789297881.393324) lab 1A0#1907B8400B000145 R
(1789297881.412778) lab 100#8B1E704101000220 R
(1789297881.413352) lab 1A0#2807B9500B0002A6 R
(1789297881.432833) lab 100#A41E70410100030E R
(1789297881.433260) lab 1A0#3707BB700B0003C0 R
(1789297881.452783) lab 100#BF1E7041010004D1 R
(1789297881.453346) lab 1A0#4607BC800B000403 R
(1789297881.472796) lab 100#DD1E7041010005C7 R
(1789297881.473261) lab 1A0#5507BEA00B0005DE R
(1789297881.473780) lab 300#0225000000000A92 R
(1789297881.492799) lab 100#FD1E70410100068F R
(1789297881.493317) lab 1A0#6407BFB00B00063D R
(1789297881.512908) lab 100#1F1F70410100077E R
(1789297881.513292) lab 1A0#7307C1D00B00076F R
(1789297881.532789) lab 100#431F704101000819 R
(1789297881.533298) lab 1A0#8207C2E00B0008F1 R
(1789297881.552785) lab 100#691F704101000903 R
(1789297881.553282) lab 1A0#9107C4000C0009B2 R
(1789297881.572920) lab 100#921F704101000AB8 R
(1789297881.573251) lab 1A0#A007C5100C000A51 R
(1789297881.573781) lab 300#0225000000000B8F R
(1789297881.592792) lab 100#BA1F704101000B18 R
(1789297881.593298) lab 1A0#AF07C7300C000B8E R
(1789297881.612841) lab 100#E51F704101000C70 R
(1789297881.613263) lab 1A0#BE07C8400C000CBE R
(1789297881.632806) lab 100#1020704101000D09 R
(1789297881.633299) lab 1A0#CD07CA600C000DD2 R
(1789297881.652840) lab 100#3B20704101000E74 R
(1789297881.653274) lab 1A0#DC07CB700C000E5E R
(1789297881.672814) lab 100#672070410100000E R
(1789297881.673261) lab 1A0#EB07CD900C00002A R
(1789297881.673783) lab 300#0225000000000CDC R
(1789297881.692809) lab 100#93207041010001D3 R
(1789297881.693291) lab 1A0#FA07CEA00C000102 R
(1789297881.712817) lab 100#BE2070410100027D R
(1789297881.713332) lab 1A0#0908D0C00C000288 R
(1789297881.732813) lab 100#E82070420100036E R
(1789297881.733304) lab 1A0#1808D1D00C00033E R
(1789297881.752864) lab 100#12217042010004BA R
(1789297881.753257) lab 1A0#2708D3F00C000479 R
(1789297881.772918) lab 100#3A2170420100051A R
(1789297881.773479) lab 1A0#3608D4000D0005CA R
(1789297881.773910) lab 300#0225000000000DC1 R
(1789297881.792834) lab 100#6021704201000632 R
(1789297881.793250) lab 1A0#4508D6200D00069C R
(1789297881.812866) lab 100#8421704201000756 R
(1789297881.813339) lab 1A0#5408D7300D00072A R
(1789297881.832966) lab 100#A721704201000865 R
(1789297881.833437) lab 1A0#6308D9500D000801 R
(1789297881.852833) lab 100#C7217042010009C9 R
(1789297881.853268) lab 1A0#7208DA600D000929 R
(1789297881.873129) lab 100#E521704201000A3B R
(1789297881.873703) lab 1A0#8108DC800D000ACA R
(1789297881.874462) lab 300#0225000000000EE6 R
(1789297881.892887) lab 100#0122704201000B95 R
(1789297881.893300) lab 1A0#9008DD900D000B7C R
(1789297881.912973) lab 100#1A22704201000C4A R
(1789297881.913276) lab 1A0#9F08DFA00D000CC8 R
(1789297881.933142) lab 100#3122704201000D0D R
(1789297881.934182) lab 1A0#AE08E0C00D000DD3 R
(1789297881.953146) lab 100#4622704201000EAC R
(1789297881.953787) lab 1A0#BD08E2D00D000E5B R
(1789297881.972888) lab 100#58227042010000B2 R
(1789297881.973281) lab 1A0#CC08E3F00D000088 R
(1789297881.973788) lab 300#0225000000000040 R
(1789297881.992893) lab 100#6922704201000124 R
(1789297881.993389) lab 1A0#DB08E5000E000181 R
(1789297882.012975) lab 100#78227042010002E7 R
(1789297882.013404) lab 1A0#EA08E6200E0002D9 R
(1789297882.032969) lab 100#85227042010003B5 R
(1789297882.033329) lab 1A0#F908E8300E0003A9 R
(1789297882.052818) lab 100#9122704201000436 R
(1789297882.053252) lab 1A0#0809E9500E0004FC R
(1789297882.072871) lab 100#9C227042010005CD R
(1789297882.073272) lab 1A0#1709EB600E0005BF R
(1789297882.073843) lab 300#022500000000015D R
(1789297882.093011) lab 100#A722704201000609 R
(1789297882.093428) lab 1A0#2609ED800E000699 R
(1789297882.112910) lab 100#B12270420100077E R
(1789297882.113436) lab 1A0#3509EE900E000741 R
(1789297882.132947) lab 100#BC22704201000823 R
(1789297882.133556) lab 1A0#4409F0B00E00081D R
(1789297882.152975) lab 100#C62270420100095E R
(1789297882.153539) lab 1A0#5309F1C00E0009A6 R
(1789297882.173060) lab 100#D122704201000A4E R
(1789297882.173533) lab 1A0#6209F3E00E000A94 R
(1789297882.173904) lab 300#022500000000027A R
(1789297882.193029) lab 100#DE22704201000B0F R
(1789297882.193474) lab 1A0#7109F4F00E000BF9 R
(1789297882.212902) lab 100#EB22704201000CBE R
(1789297882.213367) lab 1A0#8009F6100F000CEE R
(1789297882.233075) lab 100#FA22704301000DDA R
(1789297882.233954) lab 1A0#8F09F7200F000DAA R
(1789297882.252980) lab 100#0B23704301000E4F R
(1789297882.253845) lab 1A0#9E09F9400F000EA1 R
(1789297882.273004) lab 100#1E23704301000064 R
(1789297882.273705) lab 1A0#AD09FA500F0000AD R
(1789297882.274181) lab 300#0225000000000367 R
(1789297882.292894) lab 100#32237043010001AD R
(1789297882.293409) lab 1A0#BC09FC700F00017F R
(1789297882.313046) lab 100#49237043010002B7 R
(1789297882.314041) lab 1A0#CB09FD800F00027A R
(1789297882.333180) lab 100#63237043010003AD R
(1789297882.334204) lab 1A0#DA09FFA00F00031D R
(1789297882.352798) lab 100#7E237043010004A1 R
(1789297882.353340) lab 1A0#E90900B10F000428 R
(1789297882.373039) lab 100#9C23704301000516 R
(1789297882.373906) lab 1A0#F80902D10F0005DB R
(1789297882.374486) lab 300#0225000000000434 R
(1789297882.392882) lab 100#BD23704301000603 R
(1789297882.393369) lab 1A0#070A03E10F0006C6 R
(1789297882.412792) lab 100#DF23704301000715 R
(1789297882.413374) lab 1A0#160A05011000072B R
(1789297882.432902) lab 100#0424704301000892 R
(1789297882.433321) lab 1A0#250A06111000083A R
(1789297882.452788) lab 100#2A247043010009E1 R
(1789297882.453458) lab 1A0#340A08311000099F R
(1789297882.472850) lab 100#5224704301000A1C R
(1789297882.473322) lab 1A0#430A094110000AAF R
(1789297882.473785) lab 300#0225000000000529 R
(1789297882.492827) lab 100#7B24704301000BE1 R
(1789297882.493323) lab 1A0#520A0B6110000BC8 R
(1789297882.512843) lab 100#A624704301000C92 R
(1789297882.513327) lab 1A0#610A0C7110000C84 R
(1789297882.532838) lab 100#D124704301000D09 R
(1789297882.533332) lab 1A0#700A0E9110000D42 R
(1789297882.552846) lab 100#FC24704301000EA7 R
(1789297882.553334) lab 1A0#7F0A0FA110000E3C R
(1789297882.572833) lab 100#28257043010000E8 R
(1789297882.573297) lab 1A0#8E0A11B1100000B3 R
(1789297882.573798) lab 300#022500000000060E R
(1789297882.592829) lab 100#5425704301000146 R
(1789297882.593333) lab 1A0#9D0A12D110000190 R
(1789297882.612819) lab 100#7F2570430100023B R
(1789297882.613329) lab 1A0#AC0A14E110000232 R
(1789297882.632832) lab 100#A925704301000333 R
(1789297882.633329) lab 1A0#BB0A150111000316 R
(1789297882.652853) lab 100#D22570430100045D R
(1789297882.653312) lab 1A0#CA0A1711110004E1 R
(1789297882.672809) lab 100#FA257043010005FD R
(1789297882.673311) lab 1A0#D90A183111000594 R
(1789297882.673782) lab 300#0225000000000713 R
(1789297882.692829) lab 100#20267043010006BE R
(1789297882.693472) lab 1A0#E80A1A4111000617 R
(1789297882.712848) lab 100#442670430100077B R
(1789297882.713357) lab 1A0#F70A1B61110007CF R
(1789297882.732916) lab 100#67267044010008BC R
(1789297882.733363) lab 1A0#060B1D7111000882 R
(1789297882.752912) lab 100#86267044010009EC R
(1789297882.753479) lab 1A0#150B1F91110009FE R
(1789297882.772831) lab 100#A426704401000A1E R
(1789297882.773442) lab 1A0#240B20A111000A6E R
(1789297882.774165) lab 300#02250000000008A8 R
(1789297882.792861) lab 100#BF26704401000B8F R
(1789297882.793411) lab 1A0#330B22C111000B4E R
(1789297882.812873) lab 100#D826704401000CE3 R
(1789297882.813345) lab 1A0#420B23D111000C07 R
(1789297882.833081) lab 100#EF26704401000DA6 R
(1789297882.833847) lab 1A0#510B25F111000D6F R
(1789297882.852937) lab 100#0427704401000EE2 R
(1789297882.853761) lab 1A0#600B260112000E3F R
(1789297882.873028) lab 100#1627704401000047 R
(1789297882.873650) lab 1A0#6F0B282112000099 R
(1789297882.874630) lab 300#02250000000009B5 R
(1789297882.892987) lab 100#262770440100018C R
(1789297882.893617) lab 1A0#7E0B29311200012F R
(1789297882.912957) lab 100#35277044010002F5 R
(1789297882.913488) lab 1A0#8D0B2B511200024C R
(1789297882.933166) lab 100#422770440100036E R
(1789297882.934232) lab 1A0#9C0B2C61120003D1 R
(1789297882.952962) lab 100#4E27704401000486 R
(1789297882.953661) lab 1A0#AB0B2E81120004E5 R
(1789297882.973145) lab 100#5A2770440100054B R
(1789297882.973898) lab 1A0#BA0B2F9112000553 R
(1789297882.975046) lab 300#0225000000000A92 R
