(1789297889.204327) lab 100#2512703C0100006E R
(1789297889.204960) lab 1A0#0200000000000074 R
(1789297889.205381) lab 300#0225000000000040 R
(1789297889.225063) lab 1A0#11000220000001A9 R
(1789297889.226345) lab 100#5512703C0100017B R
(1789297889.242136) lab 100#7712703C01000289 R
(1789297889.245201) lab 1A0#200003300000024A R
(1789297889.257821) lab 100#9912703C01000385 R
(1789297889.265315) lab 1A0#2F000550000003B4 R
(1789297889.280410) lab 100#C812703C010004EC R
(1789297889.285328) lab 1A0#3E000660000004D2 R
(1789297889.299486) lab 100#EF12703C01000510 R
(1789297889.305176) lab 1A0#4D000880000005DD R
(1789297889.305665) lab 300#022500000000015D R
(1789297889.318471) lab 100#1413703C010006ED R
(1789297889.325127) lab 1A0#5C00099000000651 R
(1789297889.341454) lab 100#3F13703C010007AA R
(1789297889.345326) lab 1A0#6B000BB00000078A R
(1789297889.357082) lab 100#5B13703C010008C9 R
(1789297889.365311) lab 1A0#7A000CC000000825 R
(1789297889.369622) lab 100#7013703C0100098E R
(1789297889.385096) lab 1A0#89000EE0000009E8 R
(1789297889.388997) lab 100#9013703C01000AB9 R
(1789297889.401067) lab 100#A313703C01000B95 R
(1789297889.405149) lab 1A0#98000FF000000A64 R
(1789297889.405778) lab 300#022500000000027A R
(1789297889.421243) lab 100#BF13703C01000CC4 R
(1789297889.425129) lab 1A0#A700111001000B6F R
(1789297889.437127) lab 100#D513703C01000D00 R
(1789297889.445076) lab 1A0#B600122001000C09 R
(1789297889.453103) lab 100#E913703D01000ED7 R
(1789297889.464711) lab 100#F613703D01000094 R
(1789297889.465003) lab 1A0#C500144001000D44 R
(1789297889.477241) lab 100#0414703D01000155 R
(1789297889.485137) lab 1A0#D400155001000EC8 R
(1789297889.505236) lab 1A0#E3001770010000A8 R
(1789297889.505617) lab 300#0225000000000367 R
(1789297889.506361) lab 100#2014703D01000274 R
(1789297889.516874) lab 100#2A14703D01000301 R
(1789297889.525272) lab 1A0#F2001880010001E3 R
(1789297889.544369) lab 100#3F14703D010004DF R
(1789297889.545224) lab 1A0#01011A900100023D R
(1789297889.565100) lab 1A0#10011BB0010003E4 R
(1789297889.570643) lab 100#5114703D01000572 R
(1789297889.585202) lab 1A0#1F011DC001000471 R
(1789297889.593879) lab 100#5F14703D01000654 R
(1789297889.605172) lab 1A0#2E011FE001000579 R
(1789297889.605675) lab 300#0225000000000434 R
(1789297889.617743) lab 100#6D14703D01000725 R
(1789297889.625151) lab 1A0#3D0120F001000676 R
(1789297889.639077) lab 100#7814703D01000813 R
(1789297889.645242) lab 1A0#4C0122100200078D R
(1789297889.662977) lab 100#8414703D0100091C R
(1789297889.665240) lab 1A0#5B01232002000804 R
(1789297889.685133) lab 1A0#6A0125400200092D R
(1789297889.692729) lab 100#9414703D01000A82 R
(1789297889.705110) lab 1A0#7901265002000ACF R
(1789297889.705558) lab 300#0225000000000529 R
(1789297889.714225) lab 100#A014703D01000B20 R
(1789297889.725141) lab 1A0#8801287002000B7A R
(1789297889.742051) lab 100#B114703D01000C97 R
(1789297889.745290) lab 1A0#9701298002000C68 R
(1789297889.753034) lab 100#B914703D01000D58 R
(1789297889.765260) lab 1A0#A6012BA002000D60 R
(1789297889.766219) lab 100#C314703D01000E1F R
(1789297889.783934) lab 100#D114703D010000BA R
(1789297889.785033) lab 1A0#B5012CB002000E37 R
(1789297889.797573) lab 100#DD14703D0100011C R
(1789297889.805164) lab 1A0#C4012ED0020000CE R
(1789297889.805496) lab 300#022500000000060E R
(1789297889.825154) lab 100#F814703D01000260 R
(1789297889.825727) lab 1A0#D4012FE00200016F R
(1789297889.845207) lab 1A0#E2013100030002D1 R
(1789297889.848988) lab 100#1315703D0100031E R
(1789297889.860345) lab 100#2115703D01000421 R
(1789297889.865130) lab 1A0#F101321003000309 R
(1789297889.875928) lab 100#3515703D010005EC R
(1789297889.885181) lab 1A0#000234300300044F R
(1789297889.904804) lab 100#5F15703D01000612 R
(1789297889.905247) lab 1A0#0F0235400300059F R
(1789297889.905512) lab 300#0225000000000713 R
(1789297889.920255) lab 100#7715703D010007B2 R
(1789297889.925227) lab 1A0#1E023760030006C2 R
(1789297889.932335) lab 100#8B15703D0100081B R
(1789297889.945211) lab 1A0#2D023870030007B7 R
(1789297889.954421) lab 100#B115703E01000902 R
(1789297889.965225) lab 1A0#3C023A90030008D7 R
(1789297889.973366) lab 100#D415703E01000AA0 R
(1789297889.985190) lab 1A0#4B023BA003000949 R
(1789297890.002859) lab 100#0D16703E01000B3E R
(1789297890.005262) lab 1A0#5A023DC003000A35 R
(1789297890.005616) lab 300#02250000000008A8 R
(1789297890.025220) lab 1A0#69023ED003000B82 R
(1789297890.031602) lab 100#4816703E01000C87 R
(1789297890.045175) lab 1A0#780240F003000CD9 R
(1789297890.048826) lab 100#6D16703E01000DC1 R
(1789297890.065359) lab 1A0#8702410004000D1F R
(1789297890.072001) lab 100#9F16703E01000EF5 R
(1789297890.085192) lab 1A0#9602432004000E42 R
(1789297890.094610) lab 100#D016703E010000D1 R
(1789297890.105247) lab 1A0#A5024430040000FB R
(1789297890.105725) lab 300#02250000000009B5 R
(1789297890.120111) lab 100#0817703E0100019E R
(1789297890.125314) lab 1A0#B402465004000108 R
(1789297890.144026) lab 100#3C17703E01000206 R
(1789297890.145318) lab 1A0#C3024760040002AC R
(1789297890.165355) lab 1A0#D2024980040003A8 R
(1789297890.172444) lab 100#7817703E010003AC R
(1789297890.185262) lab 1A0#E1024A9004000451 R
(1789297890.194081) lab 100#A517703E010004DF R
(1789297890.205073) lab 1A0#F0024CA0040005A6 R
(1789297890.205491) lab 300#0225000000000A92 R
(1789297890.208076) lab 100#C117703E0100051A R
(1789297890.225208) lab 1A0#FF024DC004000669 R
(1789297890.225912) lab 100#E317703E010006E8 R
(1789297890.238953) lab 100#FB17703E0100079E R
(1789297890.245048) lab 1A0#0E034FD004000737 R
(1789297890.265072) lab 1A0#1D0351F004000860 R
(1789297890.265354) lab 100#2918703E0100089C R
(1789297890.281080) lab 100#4318703E01000958 R
(1789297890.285145) lab 1A0#2C03520005000909 R
(1789297890.298388) lab 100#5E18703E01000A20 R
(1789297890.305130) lab 1A0#3B03542005000A32 R
(1789297890.305566) lab 300#0225000000000B8F R
(1789297890.319931) lab 100#7D18703E01000BB5 R
(1789297890.325084) lab 1A0#4A03553005000B35 R
(1789297890.339166) lab 100#9618703E01000CC3 R
(1789297890.345117) lab 1A0#5903575005000C32 R
(1789297890.355862) lab 100#AB18703E01000DEE R
(1789297890.365152) lab 1A0#6803586005000DB7 R
(1789297890.383877) lab 100#C918703E01000EC2 R
(1789297890.385127) lab 1A0#77035A8005000E4A R
(1789297890.405125) lab 1A0#86035B9005000057 R
(1789297890.405756) lab 300#0225000000000CDC R
(1789297890.413124) lab 100#E418703E010000ED R
(1789297890.425215) lab 1A0#95035DB00500013F R
(1789297890.425944) lab 100#EF18703E010001C5 R
(1789297890.445200) lab 1A0#A4035EC0050002D6 R
(1789297890.453325) lab 100#0319703F01000292 R
(1789297890.465215) lab 1A0#B30360E00500038F R
(1789297890.481622) lab 100#1519703F010003E5 R
(1789297890.485197) lab 1A0#C20361F0050004C6 R
(1789297890.505180) lab 1A0#D103631006000536 R
(1789297890.505544) lab 300#0225000000000DC1 R
(1789297890.506492) lab 100#2419703F0100043D R
(1789297890.525203) lab 1A0#E0036420060006FE R
(1789297890.531869) lab 100#3119703F010005AD R
(1789297890.545236) lab 1A0#EF036640060007B5 R
(1789297890.547542) lab 100#3919703F01000658 R
(1789297890.562658) lab 100#4119703F0100079F R
(1789297890.565073) lab 1A0#FE036750060008A5 R
(1789297890.577210) lab 100#4819703F010008AB R
(1789297890.585104) lab 1A0#0D04697006000965 R
(1789297890.587783) lab 100#4E19703F01000965 R
(1789297890.605238) lab 1A0#1C046A8006000AD6 R
(1789297890.605702) lab 300#0225000000000EE6 R
(1789297890.606479) lab 100#5919703F01000A75 R
(1789297890.622215) lab 100#6219703F01000B8B R
(1789297890.625163) lab 1A0#2B046CA006000BB8 R
(1789297890.635636) lab 100#6A19703F01000C0A R
(1789297890.645192) lab 1A0#3A046DB006000C40 R
(1789297890.649198) lab 100#7419703F01000DAF R
(1789297890.665197) lab 1A0#49046FD006000DB8 R
(1789297890.675791) lab 100#8819703F01000E9A R
(1789297890.685138) lab 1A0#580470E006000E86 R
(1789297890.697822) lab 100#9B19703F01000062 R
(1789297890.705162) lab 1A0#670472000700001A R
(1789297890.705910) lab 300#0225000000000040 R
(1789297890.725260) lab 1A0#76047310070001AC R
(1789297890.727884) lab 100#B919703F010001AA R
(1789297890.745113) lab 1A0#85047530070002EE R
(1789297890.757634) lab 100#DC19703F01000208 R
(1789297890.765265) lab 1A0#9404764007000352 R
(1789297890.770360) lab 100#ED19703F0100039E R
(1789297890.785303) lab 1A0#A304786007000405 R
(1789297890.786570) lab 100#031A703F01000416 R
(1789297890.805299) lab 1A0#B2047970070005B3 R
(1789297890.805690) lab 300#022500000000015D R
(1789297890.807045) lab 100#221A703F01000539 R
(1789297890.823334) lab 100#3C1A703F010006A6 R
(1789297890.825193) lab 1A0#C1047B9007000644 R
(1789297890.845375) lab 1A0#D0047CA0070007D9 R
(1789297890.848124) lab 100#661A703F010007B4 R
(1789297890.860652) lab 100#7D1A703F01000883 R
(1789297890.865432) lab 1A0#DF047EB0070008CF R
(1789297890.876447) lab 100#9A1A703F01000900 R
(1789297890.885180) lab 1A0#EE047FD0070009ED R
(1789297890.887005) lab 100#AF1A703F01000AC5 R
(1789297890.905089) lab 1A0#FD0481E007000A7E R
(1789297890.905534) lab 300#022500000000027A R
(1789297890.912594) lab 100#E21A703F01000BE0 R
(1789297890.925066) lab 1A0#0C05830008000B68 R
(1789297890.929284) lab 100#051B703F01000C6B R
(1789297890.939640) lab 100#1B1B703F01000DCE R
(1789297890.945029) lab 1A0#1B05841008000C22 R
(1789297890.952307) lab 100#361B704001000EF3 R
(1789297890.964791) lab 100#511B70400100006A R
(1789297890.965111) lab 1A0#2A05863008000D2A R
(1789297890.975087) lab 100#671B704001000172 R
(1789297890.985057) lab 1A0#3905874008000EC2 R
(1789297890.994308) lab 100#911B70400100022F R
(1789297891.005138) lab 1A0#480589600800006D R
(1789297891.005471) lab 300#0225000000000367 R
(1789297891.019418) lab 100#C81B7040010003DA R
(1789297891.025101) lab 1A0#57058A700800010E R
(1789297891.043609) lab 100#FC1B704001000436 R
(1789297891.045050) lab 1A0#66058C9008000228 R
(1789297891.065093) lab 1A0#75058DA00800036E R
(1789297891.073469) lab 100#3B1C704001000515 R
(1789297891.085092) lab 1A0#84058FC0080004C3 R
(1789297891.089474) lab 100#5C1C70400100060D R
(1789297891.105165) lab 1A0#930590D00800055E R
(1789297891.105606) lab 300#0225000000000434 R
(1789297891.108969) lab 100#831C70400100078A R
(1789297891.125109) lab 1A0#A20592F00800066C R
(1789297891.125828) lab 100#A31C70400100085E R
(1789297891.145139) lab 1A0#B105930009000704 R
(1789297891.146834) lab 100#C91C70400100099A R
(1789297891.165124) lab 1A0#C0059520090008C1 R
(1789297891.168881) lab 100#EF1C704001000A01 R
(1789297891.184445) lab 100#081D704001000BC4 R
(1789297891.185819) lab 1A0#D0059630090009FE R
(1789297891.199435) lab 100#1F1D704001000CA0 R
(1789297891.205237) lab 1A0#DE05985009000A10 R
(1789297891.205804) lab 300#0225000000000529 R
(1789297891.220489) lab 100#3D1D704001000D68 R
(1789297891.225142) lab 1A0#ED05996009000B39 R
(1789297891.234009) lab 100#4F1D704001000EFD R
(1789297891.245149) lab 1A0#FC059B8009000CB1 R
(1789297891.256562) lab 100#6A1D704001000000 R
(1789297891.265133) lab 1A0#0B069C9009000D6F R
(1789297891.285193) lab 1A0#1A069EB009000E32 R
(1789297891.285907) lab 100#891D7040010001EA R
(1789297891.305189) lab 1A0#29069FC009000034 R
(1789297891.306146) lab 300#022500000000060E R
(1789297891.310381) lab 100#A01D70400100022D R
(1789297891.325150) lab 1A0#3806A1E0090001BE R
(1789297891.331159) lab 100#B11D7040010003D4 R
(1789297891.345212) lab 1A0#4706A2F009000256 R
(1789297891.357460) lab 100#C31D704001000435 R
(1789297891.365070) lab 1A0#5606A4100A0003A9 R
(1789297891.369533) lab 100#CB1D7040010005FA R
(1789297891.385342) lab 1A0#6506A5200A0004CE R
(1789297891.395290) lab 100#DB1D704001000664 R
(1789297891.405198) lab 1A0#7406A7400A00053D R
(1789297891.405655) lab 300#0225000000000713 R
(1789297891.417185) lab 100#E61D704001000749 R
(1789297891.425124) lab 1A0#8306A8500A000664 R
(1789297891.435984) lab 100#F01D704001000898 R
(1789297891.445215) lab 1A0#9206AA700A000703 R
(1789297891.463288) lab 100#FE1D704101000919 R
(1789297891.465335) lab 1A0#A106AB800A00082D R
(1789297891.485295) lab 1A0#B006ADA00A0009FF R
(1789297891.491308) lab 100#0D1E704101000ABA R
(1789297891.502203) lab 100#131E704101000B1F R
(1789297891.505184) lab 1A0#BF06AEB00A000A1F R
(1789297891.505636) lab 300#02250000000008A8 R
(1789297891.525249) lab 1A0#CE06B0C00A000B54 R
(1789297891.530400) lab 100#241E704101000C14 R
(1789297891.545356) lab 1A0#DD06B1E00A000C79 R
(1789297891.547679) lab 100#301E704101000DD9 R
(1789297891.560091) lab 100#391E704101000E71 R
(1789297891.565316) lab 1A0#EC06B3F00A000D1E R
(1789297891.584163) lab 100#4D1E7041010000B6 R
(1789297891.585253) lab 1A0#FB06B5100B000E0B R
(1789297891.605287) lab 1A0#0A07B6200B0000CE R
(1789297891.605843) lab 300#02250000000009B5 R
(1789297891.607769) lab 100#631E7041010001C5 R
(1789297891.625117) lab 1A0#1907B8400B000145 R
(1789297891.635909) lab 100#811E704101000248 R
(1789297891.645164) lab 1A0#2807B9500B0002A6 R
(1789297891.650671) lab 100#931E704101000356 R
(1789297891.665149) lab 1A0#3707BB700B0003C0 R
(1789297891.674787) lab 100#B21E704101000437 R
(1789297891.685168) lab 1A0#4607BC800B000403 R
(1789297891.686250) lab 100#C21E704101000522 R
(1789297891.705197) lab 1A0#5507BEA00B0005DE R
(1789297891.705634) lab 300#0225000000000A92 R
(1789297891.708447) lab 100#E41E7041010006B9 R
(1789297891.725135) lab 1A0#6407BFB00B00063D R
(1789297891.738369) lab 100#151F704101000716 R
(1789297891.745245) lab 1A0#7307C1D00B00076F R
(1789297891.752325) lab 100#2E1F70410100084E R
(1789297891.765211) lab 1A0#8207C2E00B0008F1 R
(1789297891.776603) lab 100#5B1F70410100096F R
(1789297891.785104) lab 1A0#9107C4000C0009B2 R
(1789297891.805248) lab 1A0#A007C5100C000A51 R
(1789297891.805708) lab 100#951F704101000A36 R
(1789297891.806111) lab 300#0225000000000B8F R
(1789297891.824019) lab 100#BA1F704101000B18 R
(1789297891.825128) lab 1A0#AF07C7300C000B8E R
(1789297891.835975) lab 100#D31F704101000C75 R
(1789297891.845237) lab 1A0#BE07C8400C000CBE R
(1789297891.856116) lab 100#FF1F704101000DBC R
(1789297891.865184) lab 1A0#CD07CA600C000DD2 R
(1789297891.868181) lab 100#1920704101000EA1 R
(1789297891.880131) lab 100#3320704101000000 R
(1789297891.885275) lab 1A0#DC07CB700C000E5E R
(1789297891.904437) lab 100#682070410100014F R
(1789297891.905078) lab 1A0#EB07CD900C00002A R
(1789297891.905588) lab 300#0225000000000CDC R
(1789297891.925112) lab 1A0#FA07CEA00C000102 R
(1789297891.925841) lab 100#972070410100029D R
(1789297891.944799) lab 100#BF2070410100033D R
(1789297891.945244) lab 1A0#0908D0C00C000288 R
(1789297891.963014) lab 100#E62070420100043C R
(1789297891.965195) lab 1A0#1808D1D00C00033E R
(1789297891.983657) lab 100#1121704201000540 R
(1789297891.985216) lab 1A0#2708D3F00C000479 R
(1789297891.995251) lab 100#282170420100063E R
(1789297892.005234) lab 1A0#3608D4000D0005CA R
(1789297892.005752) lab 300#0225000000000DC1 R
(1789297892.015909) lab 100#50217042010007F9 R
(1789297892.025149) lab 1A0#4508D6200D00069C R
(1789297892.039556) lab 100#7C21704201000896 R
(1789297892.045084) lab 1A0#5408D7300D00072A R
(1789297892.050011) lab 100#8F217042010009C5 R
(1789297892.065045) lab 1A0#6308D9500D000801 R
(1789297892.079859) lab 100#C021704201000A60 R
(1789297892.085076) lab 1A0#7208DA600D000929 R
(1789297892.105030) lab 1A0#8108DC800D000ACA R
(1789297892.105450) lab 300#0225000000000EE6 R
(1789297892.108917) lab 100#EC21704201000BA9 R
(1789297892.125042) lab 1A0#9008DD900D000B7C R
(1789297892.130262) lab 100#0922704201000C14 R
(1789297892.145108) lab 1A0#9F08DFB00D000CED R
(1789297892.160134) lab 100#2C22704201000D52 R
(1789297892.165156) lab 1A0#AE08E0C00D000DD3 R
(1789297892.185241) lab 1A0#BD08E2D00D000E5B R
(1789297892.188160) lab 100#4922704201000EF0 R
(1789297892.204643) lab 100#59227042010000EF R
(1789297892.205213) lab 1A0#CC08E3F00D000088 R
(1789297892.205568) lab 300#0225000000000040 R
(1789297892.215908) lab 100#6222704201000111 R
(1789297892.225214) lab 1A0#DB08E5000E000181 R
(1789297892.231270) lab 100#6E2270420100028D R
(1789297892.245211) lab 1A0#EA08E7200E0002B3 R
(1789297892.246148) lab 100#79227042010003A7 R
(1789297892.265231) lab 1A0#F908E8300E0003A9 R
(1789297892.267404) lab 100#872270420100045C R
(1789297892.283748) lab 100#912270420100052B R
(1789297892.285284) lab 1A0#0809EA500E000442 R
(1789297892.305296) lab 1A0#1709EB600E0005BF R
(1789297892.306113) lab 300#022500000000015D R
(1789297892.311805) lab 100#A1227042010006DA R
(1789297892.325135) lab 1A0#2609ED800E000699 R
(1789297892.337104) lab 100#AE2270420100079B R
(1789297892.345252) lab 1A0#3509EE900E000741 R
(1789297892.361716) lab 100#BA227042010008F0 R
(1789297892.365141) lab 1A0#4409F0B00E00081D R
(1789297892.385239) lab 1A0#5309F1C00E0009A6 R
(1789297892.391655) lab 100#CA227042010009E5 R
(1789297892.405310) lab 1A0#6209F3E00E000A94 R
(1789297892.406123) lab 300#022500000000027A R
(1789297892.415888) lab 100#D822704201000AC1 R
(1789297892.425152) lab 1A0#7109F4F00E000BF9 R
(1789297892.443210) lab 100#EA22704201000BB0 R
(1789297892.445342) lab 1A0#8009F6100F000CEE R
(1789297892.461715) lab 100#F822704301000C7D R
(1789297892.465327) lab 1A0#8F09F7200F000DAA R
(1789297892.475849) lab 100#0423704301000D34 R
(1789297892.485470) lab 1A0#9E09F9400F000EA1 R
(1789297892.505194) lab 1A0#AD09FA500F0000AD R
(1789297892.505656) lab 300#0225000000000367 R
(1789297892.506309) lab 100#2023704301000E15 R
(1789297892.523124) lab 100#3123704301000057 R
(1789297892.525084) lab 1A0#BC09FC700F00017F R
(1789297892.545142) lab 1A0#CB09FD800F00027A R
(1789297892.547630) lab 100#4E2370430100011E R
(1789297892.563080) lab 100#612370430100020A R
(1789297892.565100) lab 1A0#DA09FFA00F00031D R
(1789297892.585151) lab 1A0#E90900B10F000428 R
(1789297892.591078) lab 100#89237043010003D5 R
(1789297892.605173) lab 1A0#F80902D10F0005DB R
(1789297892.605518) lab 300#0225000000000434 R
(1789297892.618686) lab 100#B4237043010004B6 R
(1789297892.625118) lab 1A0#070A03E10F0006C6 R
(1789297892.630289) lab 100#C723704301000544 R
(1789297892.645109) lab 1A0#160A05011000072B R
(1789297892.647444) lab 100#E5237043010006B6 R
(1789297892.658479) lab 100#F9237043010007A9 R
(1789297892.665301) lab 1A0#250A06111000083A R
(1789297892.672548) lab 100#13247043010008A5 R
(1789297892.685179) lab 1A0#340A08311000099F R
(1789297892.686942) lab 100#3024704301000930 R
(1789297892.697911) lab 100#4524704301000A2B R
(1789297892.705108) lab 1A0#430A094110000AAF R
(1789297892.705971) lab 300#0225000000000529 R
(1789297892.717011) lab 100#6C24704301000BD6 R
(1789297892.725083) lab 1A0#520A0B6110000BC8 R
(1789297892.745257) lab 1A0#610A0C7110000C84 R
(1789297892.746798) lab 100#AB24704301000C74 R
(1789297892.762252) lab 100#CD24704301000D0B R
(1789297892.765115) lab 1A0#700A0E9110000D42 R
(1789297892.783686) lab 100#FB24704301000E29 R
(1789297892.785320) lab 1A0#7F0A0FA110000E3C R
(1789297892.804282) lab 100#28257043010000E8 R
(1789297892.805300) lab 1A0#8E0A11C110000048 R
(1789297892.805954) lab 300#022500000000060E R
(1789297892.816342) lab 100#4325704301000171 R
(1789297892.825181) lab 1A0#9D0A12D110000190 R
(1789297892.831472) lab 100#64257043010002B7 R
(1789297892.845223) lab 1A0#AC0A14E110000232 R
(1789297892.854910) lab 100#96257043010003B9 R
(1789297892.865162) lab 1A0#BB0A150111000316 R
(1789297892.870612) lab 100#B7257043010004D8 R
(1789297892.885291) lab 1A0#CA0A1711110004E1 R
(1789297892.900234) lab 100#F325704301000572 R
(1789297892.905071) lab 1A0#D90A1931110005FE R
(1789297892.905504) lab 300#0225000000000713 R
(1789297892.923750) lab 100#20267043010006BE R
(1789297892.925070) lab 1A0#E80A1A4111000617 R
(1789297892.937707) lab 100#3926704301000795 R
(1789297892.945211) lab 1A0#F70A1C61110007C4 R
(1789297892.958981) lab 100#5E267044010008E5 R
(1789297892.965044) lab 1A0#060B1D7111000882 R
(1789297892.970364) lab 100#71267044010009CB R
(1789297892.985063) lab 1A0#150B1F91110009FE R
(1789297892.997613) lab 100#9B26704401000A94 R
(1789297893.005239) lab 1A0#240B20A111000A6E R
(1789297893.005684) lab 300#02250000000008A8 R
(1789297893.025167) lab 1A0#330B22C111000B4E R
(1789297893.026800) lab 100#C326704401000B3C R
(1789297893.045152) lab 1A0#420B23D111000C07 R
(1789297893.056398) lab 100#E726704401000C69 R
(1789297893.065141) lab 1A0#510B25F111000D6F R
(1789297893.069578) lab 100#F526704401000D77 R
(1789297893.085224) lab 1A0#600B260112000E3F R
(1789297893.094420) lab 100#0D27704401000E6D R
(1789297893.105185) lab 1A0#6F0B282112000099 R
(1789297893.105603) lab 300#02250000000009B5 R
(1789297893.122134) lab 100#2527704401000076 R
(1789297893.125155) lab 1A0#7E0B29311200012F R
(1789297893.138815) lab 100#31277044010001BB R
(1789297893.145188) lab 1A0#8D0B2B511200024C R
(1789297893.156807) lab 100#3E277044010002C0 R
(1789297893.165288) lab 1A0#9C0B2C61120003D1 R
(1789297893.179529) lab 100#4C2770440100036F R
(1789297893.185302) lab 1A0#AB0B2E81120004E5 R
(1789297893.197502) lab 100#56277044010004ED R
(1789297893.205222) lab 1A0#BA0B2F9112000553 R
(1789297893.205981) lab 300#0225000000000A92 R
